! Klopfenstein Microstrip Taper — Touchstone 2.0
! Generated: 2026-04-27T07:16:03.367655+00:00
! Generalized unequal-port S-parameters
!
[Version] 2.0
[Number of Ports] 2
[Two-Port Data Order] 12_21
[Reference] 50.00 75.00
[Number of Frequencies] 21
[Network Data]
! freq_GHz  S11_mag  S11_ang  S21_mag  S21_ang  S12_mag  S12_ang  S22_mag  S22_ang
# GHz S MA R 50
1.000000000  5.03502066e-02 -118.7253  9.93227287e-01 -118.4691  9.93227287e-01 -118.4691  5.04038209e-02 63.0786
1.450000000  2.82169144e-02 8.2283  9.92129141e-01 -172.3339  9.92129141e-01 -172.3339  2.82153657e-02 -174.6165
1.900000000  4.83914725e-02 -45.4062  9.89431209e-01 134.0445  9.89431209e-01 134.0445  4.83843344e-02 133.7669
2.350000000  1.44337239e-02 -97.3617  9.88578211e-01 80.4047  9.88578211e-01 80.4047  1.44415046e-02 82.8847
2.800000000  3.25618459e-02 26.1440  9.86272836e-01 26.7083  9.86272836e-01 26.7083  3.25633380e-02 -154.5809
3.250000000  4.87133822e-02 -26.6360  9.83757850e-01 -26.8957  9.83757850e-01 -26.8957  4.87139604e-02 153.1062
3.700000000  2.14136908e-02 -78.7218  9.82843214e-01 -80.5366  9.82843214e-01 -80.5366  2.14260492e-02 101.8426
4.150000000  2.43190768e-02 44.2648  9.80932301e-01 -134.2642  9.80932301e-01 -134.2642  2.43323909e-02 -136.7097
4.600000000  4.87351918e-02 -7.9329  9.78222760e-01 172.0741  9.78222760e-01 172.0741  4.87416434e-02 171.8607
5.050000000  3.15948312e-02 -60.2756  9.77069155e-01 118.4130  9.77069155e-01 118.4130  3.16100102e-02 120.2293
5.500000000  1.22136338e-02 60.2993  9.75663034e-01 64.6453  9.75663034e-01 64.6453  1.22625648e-02 -122.0627
5.950000000  4.54464733e-02 10.4846  9.72916370e-01 10.9041  9.72916370e-01 10.9041  4.54598002e-02 -169.8522
6.400000000  4.05285841e-02 -41.8826  9.71316529e-01 -42.7952  9.71316529e-01 -42.7952  4.05460865e-02 138.4597
6.850000000  2.14924230e-03 -62.8802  9.70311652e-01 -96.5955  9.70311652e-01 -96.5955  2.50952461e-03 127.8885
7.300000000  3.82831776e-02 28.4475  9.67809822e-01 -150.4214  9.67809822e-01 -150.4214  3.83055615e-02 -152.1527
7.750000000  4.63303148e-02 -23.6710  9.65693429e-01 155.8188  9.65693429e-01 155.8188  4.63496648e-02 156.4661
8.200000000  1.59582462e-02 -73.0712  9.64825611e-01 101.9909  9.64825611e-01 101.9909  1.60202743e-02 108.8002
8.650000000  2.76730736e-02 45.5125  9.62803110e-01 48.0881  9.62803110e-01 48.0881  2.77093046e-02 -135.4998
9.100000000  4.80636534e-02 -5.7487  9.60290358e-01 -5.7531  9.60290358e-01 -5.7531  4.80839843e-02 174.1812
9.550000000  2.86469656e-02 -56.8016  9.59242094e-01 -59.6132  9.59242094e-01 -59.6132  2.86819057e-02 123.9557
10.000000000  1.46256891e-02 59.5921  9.57773795e-01 -113.5776  9.57773795e-01 -113.5776  1.46923926e-02 -122.2207
[End]
